(1530133272.974785) can0 000#8201
(1530133273.000787) can0 701#00
(1530133273.001760) can0 601#2B17100000000000
(1530133273.001849) can0 081#0000000000000000
(1530133273.002829) can0 581#6017100000000000
(1530133273.003402) can0 601#4000180100000000
(1530133273.004866) can0 581#4300180181010000
(1530133273.005275) can0 601#2300180181010080
(1530133273.006831) can0 581#6000180100000000
(1530133273.007229) can0 601#2F001A0000000000
(1530133273.008847) can0 581#60001A0000000000
(1530133273.009370) can0 601#23001A0110004160
(1530133273.010849) can0 581#60001A0100000000
(1530133273.012008) can0 601#23001A0208006160
(1530133273.013841) can0 581#60001A0200000000
(1530133273.014501) can0 601#2F00180201000000
(1530133273.015861) can0 581#6000180200000000
(1530133273.016236) can0 601#2F001A0002000000
(1530133273.017830) can0 581#60001A0000000000
(1530133273.018208) can0 601#2300180181010000
(1530133273.019872) can0 581#6000180100000000
(1530133273.020519) can0 601#4001180100000000
(1530133273.021861) can0 581#4301180181020080
(1530133273.022236) can0 601#2301180181020080
(1530133273.023862) can0 581#6001180100000000
(1530133273.024278) can0 601#2301180181020080
(1530133273.025837) can0 581#6001180100000000
(1530133273.026328) can0 601#4002180100000000
(1530133273.027844) can0 581#4302180181030080
(1530133273.028274) can0 601#2302180181030080
(1530133273.029854) can0 581#6002180100000000
(1530133273.030245) can0 601#2F021A0000000000
(1530133273.031850) can0 581#60021A0000000000
(1530133273.032264) can0 601#23021A0120006460
(1530133273.033850) can0 581#60021A0100000000
(1530133273.034433) can0 601#23021A0220006C60
(1530133273.035847) can0 581#60021A0200000000
(1530133273.036427) can0 601#2F02180201000000
(1530133273.037846) can0 581#6002180200000000
(1530133273.038227) can0 601#2F021A0002000000
(1530133273.039838) can0 581#60021A0000000000
(1530133273.040240) can0 601#2302180181030080
(1530133273.041861) can0 581#6002180100000000
(1530133273.042889) can0 601#4000140100000000
(1530133273.043879) can0 581#4300140101020000
(1530133273.044274) can0 601#2300140101020080
(1530133273.045830) can0 581#6000140100000000
(1530133273.046203) can0 601#2F00160000000000
(1530133273.047847) can0 581#6000160000000000
(1530133273.048236) can0 601#2300160110004060
(1530133273.049831) can0 581#6000160100000000
(1530133273.050428) can0 601#230016022000FF60
(1530133273.051842) can0 581#6000160200000000
(1530133273.052484) can0 601#2F00140201000000
(1530133273.053842) can0 581#6000140200000000
(1530133273.054245) can0 601#2F00160002000000
(1530133273.055831) can0 581#6000160000000000
(1530133273.056238) can0 601#2300140101020000
(1530133273.057830) can0 581#6000140100000000
(1530133273.058409) can0 601#4001140100000000
(1530133273.059832) can0 581#4301140101030080
(1530133273.060197) can0 601#2301140101030080
(1530133273.061861) can0 581#6001140100000000
(1530133273.062281) can0 601#2F01160000000000
(1530133273.063830) can0 581#6001160000000000
(1530133273.064273) can0 601#2301160120007A60
(1530133273.065831) can0 581#6001160100000000
(1530133273.066432) can0 601#230116022001C160
(1530133273.067853) can0 581#6001160200000000
(1530133273.068339) can0 601#2F01140201000000
(1530133273.069845) can0 581#6001140200000000
(1530133273.070246) can0 601#2F01160002000000
(1530133273.071846) can0 581#6001160000000000
(1530133273.072260) can0 601#2301140101030080
(1530133273.073844) can0 581#6001140100000000
(1530133273.074335) can0 601#4002140100000000
(1530133273.075845) can0 581#4302140101040080
(1530133273.076243) can0 601#2302140101040080
(1530133273.077845) can0 581#6002140100000000
(1530133273.078234) can0 601#2302140101040080
(1530133273.079842) can0 581#6002140100000000
(1530133273.080875) can0 601#2F02160000000000
(1530133273.081879) can0 581#6002160000000000
(1530133273.082333) can0 601#2F011A0000000000
(1530133273.083873) can0 581#60011A0000000000
(1530133273.084408) can0 000#0101
(1530133275.124408) can0 201#000100000000
(1530133275.174205) can0 080#
(1530133275.175647) can0 181#500200
(1530133275.274199) can0 080#
(1530133275.275096) can0 181#500300
(1530133275.324409) can0 201#060100000000
(1530133275.374140) can0 080#
(1530133275.375110) can0 181#500300
(1530133275.474202) can0 080#
(1530133275.475106) can0 181#310300
(1530133275.574198) can0 080#
(1530133275.575098) can0 181#310300
(1530133275.624446) can0 201#070100000000
(1530133275.674207) can0 080#
(1530133275.675100) can0 181#310300
(1530133275.774205) can0 080#
(1530133275.775069) can0 181#330300
(1530133275.874191) can0 080#
(1530133275.875060) can0 181#330300
(1530133275.924406) can0 201#0F0100000000
(1530133275.974192) can0 080#
(1530133275.975056) can0 181#330300
(1530133276.074207) can0 080#
(1530133276.075056) can0 181#370300
(1530133276.124671) can0 601#2F60600006000000
(1530133276.126167) can0 581#6060600000000000
(1530133276.174207) can0 080#
(1530133276.175056) can0 181#370706
(1530133276.224536) can0 601#2F60600000000000
(1530133276.226159) can0 581#6060600000000000
(1530133276.236453) can0 601#4001100000000000
(1530133276.238102) can0 581#4F01100000000000
(1530133276.238268) can0 601#2F03100000000000
(1530133276.240113) can0 581#6003100000000000
(1530133276.274165) can0 080#
(1530133276.275053) can0 181#370306
(1530133276.374122) can0 080#
(1530133276.375031) can0 181#370306
(1530133276.474148) can0 080#
(1530133276.475053) can0 181#370306
(1530133276.574163) can0 080#
(1530133276.575061) can0 181#370306
(1530133276.674174) can0 080#
(1530133276.675065) can0 181#370306
(1530133276.774168) can0 080#
(1530133276.775071) can0 181#370306
(1530133276.874122) can0 080#
(1530133276.875046) can0 181#370306
(1530133276.974175) can0 080#
(1530133276.975063) can0 181#370306
(1530133277.074143) can0 080#
(1530133277.075041) can0 181#370306
(1530133277.174159) can0 080#
(1530133277.175016) can0 181#370306
(1530133277.274160) can0 080#
(1530133277.275063) can0 181#370306
(1530133277.374172) can0 080#
(1530133277.375059) can0 181#370306
(1530133277.474176) can0 080#
(1530133277.475059) can0 181#370306
(1530133277.574160) can0 080#
(1530133277.575056) can0 181#370306
(1530133277.585201) can0 601#4001100000000000
(1530133277.587094) can0 581#4F01100000000000
(1530133277.674174) can0 080#
(1530133277.675017) can0 181#370306
(1530133277.774165) can0 080#
(1530133277.775043) can0 181#370306
(1530133277.874121) can0 080#
(1530133277.875040) can0 181#370306
(1530133277.974118) can0 080#
(1530133277.975000) can0 181#370306
(1530133278.074160) can0 080#
(1530133278.075018) can0 181#370306
(1530133278.174199) can0 080#
(1530133278.175004) can0 181#370306
(1530133278.274205) can0 080#
(1530133278.275015) can0 181#370306
(1530133278.374225) can0 080#
(1530133278.375001) can0 181#370306
(1530133278.474216) can0 080#
(1530133278.475019) can0 181#370306
(1530133278.574203) can0 080#
(1530133278.575058) can0 181#370306
(1530133278.585348) can0 601#4001100000000000
(1530133278.587091) can0 581#4F01100000000000
(1530133278.674216) can0 080#
(1530133278.675039) can0 181#370306
(1530133278.774196) can0 080#
(1530133278.775045) can0 181#370306
(1530133278.874188) can0 080#
(1530133278.875007) can0 181#370306
(1530133278.974195) can0 080#
(1530133278.975037) can0 181#370306
(1530133279.074203) can0 080#
(1530133279.075003) can0 181#370306
(1530133279.174211) can0 080#
(1530133279.175008) can0 181#370306
(1530133279.274204) can0 080#
(1530133279.275009) can0 181#370306
(1530133279.374120) can0 080#
(1530133279.374945) can0 181#370306
(1530133279.474215) can0 080#
(1530133279.475049) can0 181#370306
(1530133279.574213) can0 080#
(1530133279.575004) can0 181#370306
(1530133279.674149) can0 080#
(1530133279.675012) can0 181#370306
(1530133279.774168) can0 080#
(1530133279.775022) can0 181#370306
(1530133279.874140) can0 080#
(1530133279.875009) can0 181#370306
(1530133279.974167) can0 080#
(1530133279.975006) can0 181#370306
(1530133280.074234) can0 080#
(1530133280.075006) can0 181#370306
(1530133280.085830) can0 601#4001100000000000
(1530133280.087053) can0 581#4F01100000000000
(1530133280.174223) can0 080#
(1530133280.175028) can0 181#370306
(1530133280.274208) can0 080#
(1530133280.275006) can0 181#370306
(1530133280.374214) can0 080#
(1530133280.375022) can0 181#370306
(1530133280.474177) can0 080#
(1530133280.474986) can0 181#370306
(1530133280.574214) can0 080#
(1530133280.575022) can0 181#370306
(1530133280.674226) can0 080#
(1530133280.675010) can0 181#370306
(1530133280.774210) can0 080#
(1530133280.775008) can0 181#370306
(1530133280.874164) can0 080#
(1530133280.875006) can0 181#370306
(1530133280.974233) can0 080#
(1530133280.975023) can0 181#370306
(1530133281.074198) can0 080#
(1530133281.075009) can0 181#370306
(1530133281.174195) can0 080#
(1530133281.175023) can0 181#370306
(1530133281.274231) can0 080#
(1530133281.275027) can0 181#370306
(1530133281.374166) can0 080#
(1530133281.374966) can0 181#370306
(1530133281.474210) can0 080#
(1530133281.475023) can0 181#370306
(1530133281.574211) can0 080#
(1530133281.575026) can0 181#370306
(1530133281.585837) can0 601#4001100000000000
(1530133281.587011) can0 581#4F01100000000000
(1530133281.674222) can0 080#
(1530133281.675015) can0 181#370306
(1530133281.774211) can0 080#
(1530133281.775010) can0 181#370306
(1530133281.874196) can0 080#
(1530133281.875008) can0 181#370306
(1530133281.974162) can0 080#
(1530133281.975011) can0 181#370306
(1530133282.074198) can0 080#
(1530133282.075011) can0 181#370306
(1530133282.174209) can0 080#
(1530133282.175026) can0 181#370306
(1530133282.274223) can0 080#
(1530133282.275926) can0 181#370306
(1530133282.374200) can0 080#
(1530133282.375012) can0 181#370306
(1530133282.474218) can0 080#
(1530133282.475856) can0 181#370306
(1530133282.574200) can0 080#
(1530133282.575013) can0 181#370306
(1530133282.586199) can0 601#4001100000000000
(1530133282.587973) can0 581#4F01100000000000
(1530133282.674198) can0 080#
(1530133282.675861) can0 181#370306
(1530133282.774206) can0 080#
(1530133282.775906) can0 181#370306
(1530133282.874158) can0 080#
(1530133282.874954) can0 181#370306
(1530133282.974140) can0 080#
(1530133282.975857) can0 181#370306
(1530133283.074166) can0 080#
(1530133283.075857) can0 181#370306
(1530133283.174166) can0 080#
(1530133283.175858) can0 181#370306
(1530133283.274165) can0 080#
(1530133283.275858) can0 181#370306
(1530133283.374165) can0 080#
(1530133283.375858) can0 181#370306
(1530133283.474185) can0 080#
(1530133283.475827) can0 181#370306
(1530133283.574174) can0 080#
(1530133283.575870) can0 181#370306
(1530133283.586270) can0 601#4001100000000000
(1530133283.587929) can0 581#4F01100000000000
(1530133283.674165) can0 080#
(1530133283.675816) can0 181#370306
(1530133283.774120) can0 080#
(1530133283.775874) can0 181#370306
(1530133283.874167) can0 080#
(1530133283.875815) can0 181#370306
(1530133283.974146) can0 080#
(1530133283.975798) can0 181#370306
(1530133284.074161) can0 080#
(1530133284.075831) can0 181#370306
(1530133284.174186) can0 080#
(1530133284.175818) can0 181#370306
(1530133284.274165) can0 080#
(1530133284.275804) can0 181#370306
(1530133284.374183) can0 080#
(1530133284.375818) can0 181#370306
(1530133284.474145) can0 080#
(1530133284.475775) can0 181#370306
(1530133284.574204) can0 080#
(1530133284.575776) can0 181#370306
(1530133284.674165) can0 080#
(1530133284.675747) can0 181#370306
(1530133284.774137) can0 080#
(1530133284.775776) can0 181#370306
(1530133284.874109) can0 080#
(1530133284.875711) can0 181#370306
(1530133284.974148) can0 080#
(1530133284.975729) can0 181#370306
(1530133285.074150) can0 080#
(1530133285.075760) can0 181#370306
(1530133285.085439) can0 601#4001100000000000
(1530133285.086846) can0 581#4F01100000000000
(1530133285.174195) can0 080#
(1530133285.175739) can0 181#370306
(1530133285.274170) can0 080#
(1530133285.275802) can0 181#370306
(1530133285.374159) can0 080#
(1530133285.375731) can0 181#370306
(1530133285.474196) can0 080#
(1530133285.475671) can0 181#370306
(1530133285.574184) can0 080#
(1530133285.575671) can0 181#370306
(1530133285.674164) can0 080#
(1530133285.675671) can0 181#370306
(1530133285.774125) can0 080#
(1530133285.775681) can0 181#370306
(1530133285.874223) can0 080#
(1530133285.875673) can0 181#370306
(1530133285.974170) can0 080#
(1530133285.975677) can0 181#370306
(1530133286.074194) can0 080#
(1530133286.075684) can0 181#370306
(1530133286.085890) can0 601#4001100000000000
(1530133286.087765) can0 581#4F01100000000000
(1530133286.174237) can0 080#
(1530133286.175692) can0 181#370306
(1530133286.274213) can0 080#
(1530133286.275647) can0 181#370306
(1530133286.374084) can0 080#
(1530133286.375667) can0 181#370306
(1530133286.474164) can0 080#
(1530133286.475647) can0 181#370306
(1530133286.574204) can0 080#
(1530133286.575602) can0 181#370306
(1530133286.674201) can0 080#
(1530133286.675680) can0 181#370306
(1530133286.774226) can0 080#
(1530133286.775593) can0 181#370306
(1530133286.874200) can0 080#
(1530133286.875684) can0 181#370306
(1530133286.974194) can0 080#
(1530133286.975589) can0 181#370306
(1530133287.074206) can0 080#
(1530133287.075564) can0 181#370306
(1530133287.086095) can0 601#4001100000000000
(1530133287.087677) can0 581#4F01100000000000
(1530133287.174209) can0 080#
(1530133287.175601) can0 181#370306
(1530133287.274213) can0 080#
(1530133287.275588) can0 181#370306
(1530133287.374196) can0 080#
(1530133287.375548) can0 181#370306
(1530133287.474205) can0 080#
(1530133287.475547) can0 181#370306
(1530133287.574215) can0 080#
(1530133287.575547) can0 181#370306
(1530133287.674206) can0 080#
(1530133287.675518) can0 181#370306
(1530133287.774196) can0 080#
(1530133287.775519) can0 181#370306
(1530133287.874205) can0 080#
(1530133287.875505) can0 181#370306
(1530133287.974231) can0 080#
(1530133287.975514) can0 181#370306
(1530133288.074167) can0 080#
(1530133288.075549) can0 181#370306
(1530133288.174201) can0 080#
(1530133288.175518) can0 181#370306
(1530133288.274212) can0 080#
(1530133288.275524) can0 181#370306
(1530133288.374226) can0 080#
(1530133288.375518) can0 181#370306
(1530133288.474205) can0 080#
(1530133288.475464) can0 181#370306
(1530133288.574205) can0 080#
(1530133288.575465) can0 181#370306
(1530133288.585405) can0 601#4001100000000000
(1530133288.586585) can0 581#4F01100000000000
(1530133288.674200) can0 080#
(1530133288.675465) can0 181#370306
(1530133288.774171) can0 080#
(1530133288.775466) can0 181#370306
(1530133288.874176) can0 080#
(1530133288.875447) can0 181#370306
(1530133288.974191) can0 080#
(1530133288.975466) can0 181#370306
(1530133289.074146) can0 080#
(1530133289.075441) can0 181#370306
(1530133289.174140) can0 080#
(1530133289.175398) can0 181#370306
(1530133289.274194) can0 080#
(1530133289.275407) can0 181#370306
(1530133289.316859) can0 601#2F60600001000000
(1530133289.318553) can0 581#6060600000000000
(1530133289.374198) can0 080#
(1530133289.375421) can0 181#370701
(1530133289.474205) can0 080#
(1530133289.475428) can0 181#370701
(1530133289.574165) can0 080#
(1530133289.575458) can0 181#370701
(1530133289.585762) can0 601#4001100000000000
(1530133289.587514) can0 581#4F01100000000000
(1530133289.674196) can0 080#
(1530133289.675411) can0 181#370701
(1530133289.774203) can0 080#
(1530133289.775389) can0 181#370701
(1530133289.874204) can0 080#
(1530133289.875376) can0 181#370701
(1530133289.974205) can0 080#
(1530133289.975391) can0 181#370701
(1530133290.074166) can0 080#
(1530133290.075444) can0 181#370701
(1530133290.174190) can0 080#
(1530133290.175397) can0 181#370701
(1530133290.274204) can0 080#
(1530133290.275369) can0 181#370701
(1530133290.374132) can0 080#
(1530133290.375337) can0 181#370701
(1530133290.474198) can0 080#
(1530133290.475351) can0 181#370701
(1530133290.574209) can0 080#
(1530133290.575338) can0 181#370701
(1530133290.674194) can0 080#
(1530133290.675337) can0 181#370701
(1530133290.774162) can0 080#
(1530133290.775327) can0 181#370701
(1530133290.874187) can0 080#
(1530133290.875350) can0 181#370701
(1530133290.974218) can0 080#
(1530133290.975307) can0 181#370701
(1530133291.074200) can0 080#
(1530133291.075324) can0 181#370701
(1530133291.086184) can0 601#4001100000000000
(1530133291.087375) can0 581#4F01100000000000
(1530133291.174168) can0 080#
(1530133291.175261) can0 181#370701
(1530133291.274221) can0 080#
(1530133291.275325) can0 181#370701
(1530133291.374202) can0 080#
(1530133291.375293) can0 181#370701
(1530133291.474216) can0 080#
(1530133291.475294) can0 181#370701
(1530133291.574176) can0 080#
(1530133291.575295) can0 181#370701
(1530133291.674204) can0 080#
(1530133291.675257) can0 181#370701
(1530133291.774197) can0 080#
(1530133291.775252) can0 181#370701
(1530133291.874211) can0 080#
(1530133291.875252) can0 181#370701
(1530133291.974200) can0 080#
(1530133291.975252) can0 181#370701
(1530133292.074137) can0 080#
(1530133292.075278) can0 181#370701
(1530133292.174215) can0 080#
(1530133292.175253) can0 181#370701
(1530133292.274173) can0 080#
(1530133292.275202) can0 181#370701
(1530133292.374198) can0 080#
(1530133292.375226) can0 181#370701
(1530133292.474214) can0 080#
(1530133292.475210) can0 181#370701
(1530133292.574217) can0 080#
(1530133292.575211) can0 181#370701
(1530133292.585853) can0 601#4001100000000000
(1530133292.587293) can0 581#4F01100000000000
(1530133292.674211) can0 080#
(1530133292.675215) can0 181#370701
(1530133292.774201) can0 080#
(1530133292.775168) can0 181#370701
(1530133292.874208) can0 080#
(1530133292.875188) can0 181#370701
(1530133292.974170) can0 080#
(1530133292.975191) can0 181#370701
(1530133293.074143) can0 080#
(1530133293.075185) can0 181#370701
(1530133293.174204) can0 080#
(1530133293.175171) can0 181#370701
(1530133293.274203) can0 080#
(1530133293.275170) can0 181#370701
(1530133293.374140) can0 080#
(1530133293.375115) can0 181#370701
(1530133293.474147) can0 080#
(1530133293.475144) can0 181#370701
(1530133293.574219) can0 080#
(1530133293.575170) can0 181#370701
(1530133293.674160) can0 080#
(1530133293.675128) can0 181#370701
(1530133293.774159) can0 080#
(1530133293.775135) can0 181#370701
(1530133293.874160) can0 080#
(1530133293.875129) can0 181#370701
(1530133293.974119) can0 080#
(1530133293.975107) can0 181#370701
(1530133294.074120) can0 080#
(1530133294.075108) can0 181#370701
(1530133294.085813) can0 601#4001100000000000
(1530133294.087211) can0 581#4F01100000000000
(1530133294.174161) can0 080#
(1530133294.175086) can0 181#370701
(1530133294.274160) can0 080#
(1530133294.275108) can0 181#370701
(1530133294.374108) can0 080#
(1530133294.375048) can0 181#370701
(1530133294.474131) can0 080#
(1530133294.475063) can0 181#370701
